T11F4 017:050 SEGGER J-Link V6.40 Log File (0000ms, 1077ms total)
T11F4 017:050 DLL Compiled: Oct 26 2018 15:06:02 (0000ms, 1077ms total)
T11F4 017:050 Logging started @ 2019-01-15 14:42 (0000ms, 1077ms total)
T11F4 017:050 JLINK_SetWarnOutHandler(...) (0000ms, 1077ms total)
T11F4 017:050 JLINK_OpenEx(...)
Firmware: J-Link V9 compiled Oct 25 2018 11:46:07
Hardware: V9.70
S/N: 20780101
Feature(s): GDB, RDI, FlashBP, FlashDL, JFlash, RDDI, RTT, MADEBYPANDA
TELNET listener socket opened on port 19021WEBSRV 
Starting webserver (0023ms, 1100ms total)
T11F4 017:050 WEBSRV Webserver running on local port 19080 (0023ms, 1100ms total)
T11F4 017:050   returns O.K. (0023ms, 1100ms total)
T11F4 017:073 JLINK_GetEmuCaps()  returns 0xB9FF7BBF (0000ms, 1100ms total)
T11F4 017:074 JLINK_TIF_GetAvailable(...) (0000ms, 1100ms total)
T11F4 017:074 JLINK_SetErrorOutHandler(...) (0000ms, 1100ms total)
T11F4 017:074 JLINK_ExecCommand("ProjectFile = "E:\work\seekfree\freescale_work\单片机库开发\LPC\LPC\Projecct\MDK\JLinkSettings.ini"", ...).   returns 0x00 (0003ms, 1103ms total)
T11F4 017:077 JLINK_ExecCommand("Device = LPC54606J512BD208:M4", ...). Device "LPC54606J512" selected.  returns 0x00 (0022ms, 1125ms total)
T11F4 017:099 JLINK_ExecCommand("DisableConnectionTimeout", ...).   returns 0x01 (0000ms, 1125ms total)
T11F4 017:099 JLINK_GetHardwareVersion()  returns 0x17AE8 (0000ms, 1125ms total)
T11F4 017:099 JLINK_GetDLLVersion()  returns 64000 (0000ms, 1125ms total)
T11F4 017:099 JLINK_GetFirmwareString(...) (0000ms, 1125ms total)
T11F4 017:099 JLINK_GetDLLVersion()  returns 64000 (0000ms, 1125ms total)
T11F4 017:099 JLINK_GetCompileDateTime() (0000ms, 1125ms total)
T11F4 017:099 JLINK_GetFirmwareString(...) (0000ms, 1125ms total)
T11F4 017:099 JLINK_GetHardwareVersion()  returns 0x17AE8 (0000ms, 1125ms total)
T11F4 017:099 JLINK_TIF_Select(JLINKARM_TIF_SWD)  returns 0x00 (0001ms, 1126ms total)
T11F4 017:101 JLINK_SetSpeed(5000) (0000ms, 1126ms total)
T11F4 017:101 JLINK_GetId() >0x10B TIF>Found SW-DP with ID 0x2BA01477 >0x0D TIF> >0x28 TIF> >0x0D TIF> >0x28 TIF> >0x10B TIF>Found SW-DP with ID 0x2BA01477 >0x0D TIF> >0x28 TIF> >0x0D TIF> >0x28 TIF> >0x0D TIF> >0x28 TIF> >0x0D TIF> >0x28 TIF> >0x0D TIF> >0x21 TIF> >0x0D TIF> >0x28 TIF>Scanning AP map to find all available APs >0x0D TIF> >0x28 TIF> >0x0D TIF> >0x21 TIF> >0x0D TIF> >0x21 TIF> >0x0D TIF> >0x28 TIF> >0x0D TIF> >0x21 TIF> >0x0D TIF> >0x21 TIF>
AP[1]: Stopped AP scan as end of AP map has been reachedAP[0]: AHB-AP (IDR: 0x24770011)Iterating through AP map to find AHB-AP to use >0x42 TIF> >0x28 TIF> >0x0D TIF> >0x28 TIF> >0x0D TIF> >0x21 TIF> >0x0D TIF> >0x21 TIF> >0x42 TIF> >0x28 TIF> >0x0D TIF> >0x28 TIF> >0x0D TIF> >0x28 TIF> >0x0D TIF> >0x21 TIF> >0x0D TIF> >0x21 TIF>AP[0]: Core foundAP[0]: AHB-AP ROM base: 0xE00FF000 >0x0D TIF> >0x28 TIF> >0x0D TIF> >0x28 TIF> >0x0D TIF> >0x28 TIF> >0x0D TIF> >0x21 TIF> >0x0D TIF> >0x21 TIF>
CPUID register: 0x410FC241. Implementer code: 0x41 (ARM)Found Cortex-M4 r0p1, Little endian. -- Max. mem block: 0x00010BD0 -- CPU_ReadMem(4 bytes @ 0xE000EDF0) -- CPU_WriteMem(4 bytes @ 0xE000EDF0) -- CPU_ReadMem(4 bytes @ 0xE0002000)FPUnit: 6 code (BP) slots and 2 literal slots -- CPU_ReadMem(4 bytes @ 0xE000EDFC) -- CPU_WriteMem(4 bytes @ 0xE000EDFC) -- CPU_ReadMem(4 bytes @ 0xE0001000) -- CPU_WriteMem(4 bytes @ 0xE0001000) -- CPU_ReadMem(4 bytes @ 0xE000ED88) -- CPU_WriteMem(4 bytes @ 0xE000ED88)
 -- CPU_ReadMem(4 bytes @ 0xE000ED88) -- CPU_WriteMem(4 bytes @ 0xE000ED88)CoreSight components:ROMTbl[0] @ E00FF000 -- CPU_ReadMem(16 bytes @ 0xE00FF000) -- CPU_ReadMem(16 bytes @ 0xE000EFF0) -- CPU_ReadMem(16 bytes @ 0xE000EFE0)ROMTbl[0][0]: E000E000, CID: B105E00D, PID: 000BB00C SCS-M7 -- CPU_ReadMem(16 bytes @ 0xE0001FF0) -- CPU_ReadMem(16 bytes @ 0xE0001FE0)ROMTbl[0][1]: E0001000, CID: B105E00D, PID: 003BB002 DWT -- CPU_ReadMem(16 bytes @ 0xE0002FF0) -- CPU_ReadMem(16 bytes @ 0xE0002FE0)
ROMTbl[0][2]: E0002000, CID: B105E00D, PID: 002BB003 FPB -- CPU_ReadMem(16 bytes @ 0xE0000FF0) -- CPU_ReadMem(16 bytes @ 0xE0000FE0)ROMTbl[0][3]: E0000000, CID: B105E00D, PID: 003BB001 ITM -- CPU_ReadMem(16 bytes @ 0xE00FF010) -- CPU_ReadMem(16 bytes @ 0xE0040FF0) -- CPU_ReadMem(16 bytes @ 0xE0040FE0)ROMTbl[0][4]: E0040000, CID: B105900D, PID: 000BB9A1 TPIU -- CPU_ReadMem(16 bytes @ 0xE0041FF0) -- CPU_ReadMem(16 bytes @ 0xE0041FE0)ROMTbl[0][5]: E0041000, CID: B105900D, PID: 000BB925 ETM >0x0D TIF>
 >0x21 TIF>  returns 0x2BA01477 (0136ms, 1262ms total)
T11F4 017:237 JLINK_GetDLLVersion()  returns 64000 (0000ms, 1262ms total)
T11F4 017:237 JLINK_CORE_GetFound()  returns 0xE0000FF (0000ms, 1262ms total)
T11F4 017:237 JLINK_GetDebugInfo(0x100 = JLINKARM_ROM_TABLE_ADDR_INDEX) -- Value=0xE00FF000  returns 0x00 (0000ms, 1262ms total)
T11F4 017:237 JLINK_GetDebugInfo(0x100 = JLINKARM_ROM_TABLE_ADDR_INDEX) -- Value=0xE00FF000  returns 0x00 (0000ms, 1262ms total)
T11F4 017:237 JLINK_GetDebugInfo(0x101 = JLINKARM_DEBUG_INFO_ETM_ADDR_INDEX) -- Value=0xE0041000  returns 0x00 (0000ms, 1262ms total)
T11F4 017:237 JLINK_ReadMemEx(0xE0041FD0, 0x0020 Bytes, ..., Flags = 0x02000004) -- CPU_ReadMem(32 bytes @ 0xE0041FD0) - Data: 04 00 00 00 00 00 00 00 00 00 00 00 00 00 00 00 ...  returns 0x20 (0001ms, 1263ms total)
T11F4 017:238 JLINK_GetDebugInfo(0x102 = JLINKARM_DEBUG_INFO_MTB_ADDR_INDEX) -- Value=0x00000000  returns 0x00 (0000ms, 1263ms total)
T11F4 017:238 JLINK_GetDebugInfo(0x103 = JLINKARM_DEBUG_INFO_TPIU_ADDR_INDEX) -- Value=0xE0040000  returns 0x00 (0000ms, 1263ms total)
T11F4 017:238 JLINK_GetDebugInfo(0x104 = JLINKARM_DEBUG_INFO_ITM_ADDR_INDEX) -- Value=0xE0000000  returns 0x00 (0000ms, 1263ms total)
T11F4 017:238 JLINK_GetDebugInfo(0x105 = JLINKARM_DEBUG_INFO_DWT_ADDR_INDEX) -- Value=0xE0001000  returns 0x00 (0000ms, 1263ms total)
T11F4 017:238 JLINK_GetDebugInfo(0x106 = JLINKARM_DEBUG_INFO_FPB_ADDR_INDEX) -- Value=0xE0002000  returns 0x00 (0000ms, 1263ms total)
T11F4 017:238 JLINK_GetDebugInfo(0x107 = JLINKARM_DEBUG_INFO_NVIC_ADDR_INDEX) -- Value=0xE000E000  returns 0x00 (0000ms, 1263ms total)
T11F4 017:238 JLINK_GetDebugInfo(0x10C = JLINKARM_DEBUG_INFO_DBG_ADDR_INDEX) -- Value=0xE000EDF0  returns 0x00 (0000ms, 1263ms total)
T11F4 017:238 JLINK_GetDebugInfo(0x01 = Unknown) -- Value=0x00000001  returns 0x00 (0000ms, 1263ms total)
T11F4 017:238 JLINK_ReadMemU32(0xE000ED00, 0x0001 Items, ...) -- CPU_ReadMem(4 bytes @ 0xE000ED00) - Data: 41 C2 0F 41  returns 1 (0000ms, 1263ms total)
T11F4 017:238 JLINK_GetDebugInfo(0x10F = JLINKARM_DEBUG_INFO_HAS_CORTEX_M_SECURITY_EXT_INDEX) -- Value=0x00000000  returns 0x00 (0000ms, 1263ms total)
T11F4 017:238 JLINK_SetResetType(JLINKARM_CM3_RESET_TYPE_NORMAL)  returns JLINKARM_CM3_RESET_TYPE_HALT_AFTER_BTL (0001ms, 1264ms total)
T11F4 017:239 JLINK_Reset() -- CPU is running -- CPU_WriteMem(4 bytes @ 0xE000EDF0) -- CPU is running -- CPU_WriteMem(4 bytes @ 0xE000EDFC)Reset: Halt core after reset via DEMCR.VC_CORERESET. >0x35 TIF>Reset: Reset device via AIRCR.SYSRESETREQ. -- CPU is running -- CPU_WriteMem(4 bytes @ 0xE000ED0C) >0x0D TIF> >0x28 TIF> -- CPU_ReadMem(4 bytes @ 0xE000EDF0) -- CPU_ReadMem(4 bytes @ 0xE000EDF0) -- CPU is running -- CPU_WriteMem(4 bytes @ 0xE000EDF0) -- CPU is running -- CPU_WriteMem(4 bytes @ 0xE000EDFC)
 -- CPU_ReadMem(4 bytes @ 0xE000EDF0) -- CPU_WriteMem(4 bytes @ 0xE000EDFC) -- CPU_WriteMem(4 bytes @ 0xE000EDFC) -- CPU_WriteMem(4 bytes @ 0xE000EDFC) -- CPU_WriteMem(4 bytes @ 0xE000EDFC) -- CPU_WriteMem(4 bytes @ 0xE000EDFC) -- CPU_WriteMem(4 bytes @ 0xE0001050) -- CPU_WriteMem(4 bytes @ 0xE0001054) -- CPU_WriteMem(4 bytes @ 0xE0001058) -- CPU_ReadMem(4 bytes @ 0xE0001000) -- CPU_WriteMem(4 bytes @ 0xE000EDFC) -- CPU_WriteMem(4 bytes @ 0xE0001058) -- CPU_ReadMem(4 bytes @ 0x00000004)
 -- CPU_ReadMem(4 bytes @ 0xE0002000) -- CPU_ReadMem(4 bytes @ 0xE0002008) -- CPU_ReadMem(4 bytes @ 0xE000200C) -- CPU_ReadMem(4 bytes @ 0xE0002010) -- CPU_ReadMem(4 bytes @ 0xE0002014) -- CPU_ReadMem(4 bytes @ 0xE0002018) -- CPU_ReadMem(4 bytes @ 0xE000201C) -- CPU_WriteMem(4 bytes @ 0xE0002000) -- CPU_WriteMem(4 bytes @ 0xE0002008) -- CPU_WriteMem(4 bytes @ 0xE000200C) -- CPU_WriteMem(4 bytes @ 0xE0002010) -- CPU_WriteMem(4 bytes @ 0xE0002014) -- CPU_WriteMem(4 bytes @ 0xE0002018)
 -- CPU_WriteMem(4 bytes @ 0xE000201C) -- CPU_ReadMem(4 bytes @ 0xE0001000) -- CPU_ReadMem(4 bytes @ 0x40000000) -- CPU_WriteMem(4 bytes @ 0xE0002000) -- CPU_WriteMem(4 bytes @ 0xE0002008) -- CPU_WriteMem(4 bytes @ 0xE000200C) -- CPU_WriteMem(4 bytes @ 0xE0002010) -- CPU_WriteMem(4 bytes @ 0xE0002014) -- CPU_WriteMem(4 bytes @ 0xE0002018) -- CPU_WriteMem(4 bytes @ 0xE000201C) -- CPU_WriteMem(4 bytes @ 0xE0002000) -- CPU_ReadMem(4 bytes @ 0xE000EDFC) -- CPU_ReadMem(4 bytes @ 0xE0001000)
 (0296ms, 1560ms total)
T11F4 017:535 JLINK_ReadReg(R15 (PC))  returns 0x000001C4 (0000ms, 1560ms total)
T11F4 017:535 JLINK_ReadReg(XPSR)  returns 0xA1000000 (0000ms, 1560ms total)
T11F4 017:535 JLINK_Halt()  returns 0x00 (0000ms, 1560ms total)
T11F4 017:535 JLINK_ReadMemU32(0xE000EDF0, 0x0001 Items, ...) -- CPU_ReadMem(4 bytes @ 0xE000EDF0) - Data: 03 00 03 00  returns 1 (0000ms, 1560ms total)
T11F4 017:535 JLINK_WriteU32(0xE000EDF0, 0xA05F0003) -- CPU_WriteMem(4 bytes @ 0xE000EDF0)  returns 0 (0001ms, 1561ms total)
T11F4 017:536 JLINK_WriteU32(0xE000EDFC, 0x01000000) -- CPU_WriteMem(4 bytes @ 0xE000EDFC)  returns 0 (0000ms, 1561ms total)
T11F4 017:536 JLINK_GetHWStatus(...)  returns 0x00 (0001ms, 1562ms total)
T11F4 017:537 JLINK_GetNumBPUnits(Type = 0xFFFFFF00)  returns 0x06 (0000ms, 1562ms total)
T11F4 017:537 JLINK_GetNumBPUnits(Type = 0xF0)  returns 0x2000 (0000ms, 1562ms total)
T11F4 017:537 JLINK_GetNumWPUnits()  returns 0x04 (0000ms, 1562ms total)
T11F4 017:537 JLINK_GetSpeed()  returns 0xFA0 (0000ms, 1562ms total)
T11F4 017:537 JLINK_ReadMemU32(0xE000E004, 0x0001 Items, ...) -- CPU_ReadMem(4 bytes @ 0xE000E004) - Data: 01 00 00 00  returns 1 (0000ms, 1562ms total)
T11F4 017:537 JLINK_ReadMemU32(0xE000E004, 0x0001 Items, ...) -- CPU_ReadMem(4 bytes @ 0xE000E004) - Data: 01 00 00 00  returns 1 (0001ms, 1563ms total)
T11F4 017:538 JLINK_WriteMemEx(0xE0001000, 0x001C Bytes, ..., Flags = 0x02000004) - Data: 01 00 00 00 00 00 00 00 00 00 00 00 00 00 00 00 ... -- CPU_WriteMem(28 bytes @ 0xE0001000)  returns 0x1C (0001ms, 1564ms total)
T11F4 017:539 JLINK_ReadReg(R15 (PC))  returns 0x000001C4 (0000ms, 1564ms total)
T11F4 017:539 JLINK_ReadReg(XPSR)  returns 0xA1000000 (0000ms, 1564ms total)
T11F4 017:548 JLINK_ReadMemEx(0xE0001004, 0x0004 Bytes, ..., Flags = 0x02000000) - Data: 00 00 00 00  returns 0x04 (0000ms, 1564ms total)
T11F4 017:617 JLINK_SetResetType(JLINKARM_CM3_RESET_TYPE_NORMAL)  returns JLINKARM_CM3_RESET_TYPE_HALT_AFTER_BTL (0001ms, 1565ms total)
T11F4 017:618 JLINK_Reset() -- CPU_WriteMem(4 bytes @ 0xE000EDF0) -- CPU_WriteMem(4 bytes @ 0xE000EDFC)Reset: Halt core after reset via DEMCR.VC_CORERESET. >0x35 TIF>Reset: Reset device via AIRCR.SYSRESETREQ. -- CPU_WriteMem(4 bytes @ 0xE000ED0C) >0x0D TIF> >0x28 TIF> -- CPU_ReadMem(4 bytes @ 0xE000EDF0) -- CPU_ReadMem(4 bytes @ 0xE000EDF0) -- CPU_WriteMem(4 bytes @ 0xE000EDF0) -- CPU_WriteMem(4 bytes @ 0xE000EDFC) -- CPU_ReadMem(4 bytes @ 0xE000EDF0) -- CPU_WriteMem(4 bytes @ 0xE000EDFC)
 -- CPU_WriteMem(4 bytes @ 0xE000EDFC) -- CPU_WriteMem(4 bytes @ 0xE000EDFC) -- CPU_WriteMem(4 bytes @ 0xE000EDFC) -- CPU_WriteMem(4 bytes @ 0xE000EDFC) -- CPU_WriteMem(4 bytes @ 0xE0001050) -- CPU_WriteMem(4 bytes @ 0xE0001054) -- CPU_WriteMem(4 bytes @ 0xE0001058) -- CPU_ReadMem(4 bytes @ 0xE0001000) -- CPU_WriteMem(4 bytes @ 0xE000EDFC) -- CPU_WriteMem(4 bytes @ 0xE0001058) -- CPU_ReadMem(4 bytes @ 0x00000004) -- CPU_ReadMem(4 bytes @ 0xE0002000) -- CPU_ReadMem(4 bytes @ 0xE0002008)
 -- CPU_ReadMem(4 bytes @ 0xE000200C) -- CPU_ReadMem(4 bytes @ 0xE0002010) -- CPU_ReadMem(4 bytes @ 0xE0002014) -- CPU_ReadMem(4 bytes @ 0xE0002018) -- CPU_ReadMem(4 bytes @ 0xE000201C) -- CPU_WriteMem(4 bytes @ 0xE0002000) -- CPU_WriteMem(4 bytes @ 0xE0002008) -- CPU_WriteMem(4 bytes @ 0xE000200C) -- CPU_WriteMem(4 bytes @ 0xE0002010) -- CPU_WriteMem(4 bytes @ 0xE0002014) -- CPU_WriteMem(4 bytes @ 0xE0002018) -- CPU_WriteMem(4 bytes @ 0xE000201C) -- CPU_ReadMem(4 bytes @ 0xE0001000)
 -- CPU_ReadMem(4 bytes @ 0x40000000) -- CPU_WriteMem(4 bytes @ 0xE0002000) -- CPU_WriteMem(4 bytes @ 0xE0002008) -- CPU_WriteMem(4 bytes @ 0xE000200C) -- CPU_WriteMem(4 bytes @ 0xE0002010) -- CPU_WriteMem(4 bytes @ 0xE0002014) -- CPU_WriteMem(4 bytes @ 0xE0002018) -- CPU_WriteMem(4 bytes @ 0xE000201C) -- CPU_WriteMem(4 bytes @ 0xE0002000) -- CPU_ReadMem(4 bytes @ 0xE000EDFC) -- CPU_ReadMem(4 bytes @ 0xE0001000) (0295ms, 1860ms total)
T11F4 017:913 JLINK_ReadReg(R15 (PC))  returns 0x000001C4 (0000ms, 1860ms total)
T11F4 017:913 JLINK_ReadReg(XPSR)  returns 0xA1000000 (0000ms, 1860ms total)
T11F4 018:152 JLINK_ReadMemEx(0x000001C4, 0x003C Bytes, ..., Flags = 0x02000000) -- CPU_ReadMem(64 bytes @ 0x000001C0) -- Updating C cache (64 bytes @ 0x000001C0) -- Read from C cache (60 bytes @ 0x000001C4) - Data: 42 48 80 47 42 48 00 47 FE E7 FE E7 FE E7 FE E7 ...  returns 0x3C (0001ms, 1861ms total)
T11F4 018:234 JLINK_ReadMemEx(0x40000010, 0x0004 Bytes, ..., Flags = 0x02000004) -- CPU_ReadMem(4 bytes @ 0x40000010) - Data: 00 00 00 00  returns 0x04 (0000ms, 1861ms total)
T11F4 018:234 JLINK_ReadMemEx(0x40000040, 0x0004 Bytes, ..., Flags = 0x02000004) -- CPU_ReadMem(4 bytes @ 0x40000040) - Data: 00 00 00 00  returns 0x04 (0001ms, 1862ms total)
T11F4 018:235 JLINK_ReadMemEx(0x40000048, 0x0004 Bytes, ..., Flags = 0x02000004) -- CPU_ReadMem(4 bytes @ 0x40000048) - Data: 00 00 00 00  returns 0x04 (0000ms, 1862ms total)
T11F4 018:235 JLINK_ReadMemEx(0x4000004C, 0x0004 Bytes, ..., Flags = 0x02000004) -- CPU_ReadMem(4 bytes @ 0x4000004C) - Data: 00 00 00 00  returns 0x04 (0001ms, 1863ms total)
T11F4 018:236 JLINK_ReadMemEx(0x400000C0, 0x0004 Bytes, ..., Flags = 0x02000004) -- CPU_ReadMem(4 bytes @ 0x400000C0) - Data: 83 FF 7F FF  returns 0x04 (0000ms, 1863ms total)
T11F4 018:236 JLINK_ReadMemEx(0x400000C4, 0x0004 Bytes, ..., Flags = 0x02000004) -- CPU_ReadMem(4 bytes @ 0x400000C4) - Data: FF FF FF FF  returns 0x04 (0001ms, 1864ms total)
T11F4 018:237 JLINK_ReadMemEx(0x400000D0, 0x0004 Bytes, ..., Flags = 0x02000004) -- CPU_ReadMem(4 bytes @ 0x400000D0) - Data: 83 FF FF FF  returns 0x04 (0000ms, 1864ms total)
T11F4 018:237 JLINK_ReadMemEx(0x400000D4, 0x0004 Bytes, ..., Flags = 0x02000004) -- CPU_ReadMem(4 bytes @ 0x400000D4) - Data: FF FF FF FF  returns 0x04 (0001ms, 1865ms total)
T11F4 018:238 JLINK_ReadMemEx(0x40000100, 0x0008 Bytes, ..., Flags = 0x02000004) -- CPU_ReadMem(8 bytes @ 0x40000100) - Data: 00 00 00 00 00 00 00 00  returns 0x08 (0000ms, 1865ms total)
T11F4 018:238 JLINK_ReadMemEx(0x40000108, 0x0004 Bytes, ..., Flags = 0x02000004) -- CPU_ReadMem(4 bytes @ 0x40000108) - Data: 00 00 00 00  returns 0x04 (0001ms, 1866ms total)
T11F4 018:239 JLINK_ReadMemEx(0x400001F0, 0x0004 Bytes, ..., Flags = 0x02000004) -- CPU_ReadMem(4 bytes @ 0x400001F0) - Data: 1B 00 00 00  returns 0x04 (0000ms, 1866ms total)
T11F4 018:239 JLINK_ReadMemEx(0x40000200, 0x0008 Bytes, ..., Flags = 0x02000004) -- CPU_ReadMem(8 bytes @ 0x40000200) - Data: 8B 01 00 00 00 00 00 00  returns 0x08 (0001ms, 1867ms total)
T11F4 018:240 JLINK_ReadMemEx(0x40000208, 0x0004 Bytes, ..., Flags = 0x02000004) -- CPU_ReadMem(4 bytes @ 0x40000208) - Data: 00 00 00 00  returns 0x04 (0000ms, 1867ms total)
T11F4 018:240 JLINK_ReadMemEx(0x40000280, 0x0008 Bytes, ..., Flags = 0x02000004) -- CPU_ReadMem(8 bytes @ 0x40000280) - Data: 00 00 00 00 00 00 00 00  returns 0x08 (0001ms, 1868ms total)
T11F4 018:241 JLINK_ReadMemEx(0x40000288, 0x0004 Bytes, ..., Flags = 0x02000004) -- CPU_ReadMem(4 bytes @ 0x40000288) - Data: 07 00 00 00  returns 0x04 (0000ms, 1868ms total)
T11F4 018:241 JLINK_ReadMemEx(0x40000290, 0x0004 Bytes, ..., Flags = 0x02000004) -- CPU_ReadMem(4 bytes @ 0x40000290) - Data: 00 00 00 00  returns 0x04 (0001ms, 1869ms total)
T11F4 018:242 JLINK_ReadMemEx(0x40000298, 0x0004 Bytes, ..., Flags = 0x02000004) -- CPU_ReadMem(4 bytes @ 0x40000298) - Data: 00 00 00 00  returns 0x04 (0000ms, 1869ms total)
T11F4 018:242 JLINK_ReadMemEx(0x400002A0, 0x0034 Bytes, ..., Flags = 0x02000004) -- CPU_ReadMem(52 bytes @ 0x400002A0) - Data: 07 00 00 00 07 00 00 00 07 00 00 00 07 00 00 00 ...  returns 0x34 (0001ms, 1870ms total)
T11F4 018:243 JLINK_ReadMemEx(0x400002D4, 0x0004 Bytes, ..., Flags = 0x02000004) -- CPU_ReadMem(4 bytes @ 0x400002D4) - Data: 07 00 00 00  returns 0x04 (0001ms, 1871ms total)
T11F4 018:244 JLINK_ReadMemEx(0x400002E0, 0x0004 Bytes, ..., Flags = 0x02000004) -- CPU_ReadMem(4 bytes @ 0x400002E0) - Data: 07 00 00 00  returns 0x04 (0000ms, 1871ms total)
T11F4 018:244 JLINK_ReadMemEx(0x400002E8, 0x0010 Bytes, ..., Flags = 0x02000004) -- CPU_ReadMem(16 bytes @ 0x400002E8) - Data: 02 00 00 00 07 00 00 00 07 00 00 00 07 00 00 00  returns 0x10 (0001ms, 1872ms total)
T11F4 018:245 JLINK_ReadMemEx(0x400002F8, 0x0004 Bytes, ..., Flags = 0x02000004) -- CPU_ReadMem(4 bytes @ 0x400002F8) - Data: 07 00 00 00  returns 0x04 (0000ms, 1872ms total)
T11F4 018:245 JLINK_ReadMemEx(0x40000300, 0x0014 Bytes, ..., Flags = 0x02000004) -- CPU_ReadMem(20 bytes @ 0x40000300) - Data: 00 00 00 40 00 00 00 40 00 00 00 40 00 00 00 40 ...  returns 0x14 (0001ms, 1873ms total)
T11F4 018:246 JLINK_ReadMemEx(0x40000314, 0x0004 Bytes, ..., Flags = 0x02000004) -- CPU_ReadMem(4 bytes @ 0x40000314) - Data: 00 00 00 40  returns 0x04 (0000ms, 1873ms total)
T11F4 018:246 JLINK_ReadMemEx(0x40000380, 0x0008 Bytes, ..., Flags = 0x02000004) -- CPU_ReadMem(8 bytes @ 0x40000380) - Data: 00 00 00 00 00 00 00 40  returns 0x08 (0001ms, 1874ms total)
T11F4 018:247 JLINK_ReadMemEx(0x40000388, 0x0004 Bytes, ..., Flags = 0x02000004) -- CPU_ReadMem(4 bytes @ 0x40000388) - Data: 00 00 00 00  returns 0x04 (0000ms, 1874ms total)
T11F4 018:247 JLINK_ReadMemEx(0x40000390, 0x0010 Bytes, ..., Flags = 0x02000004) -- CPU_ReadMem(16 bytes @ 0x40000390) - Data: 00 00 00 40 00 00 00 40 00 00 00 40 00 00 00 40  returns 0x10 (0001ms, 1875ms total)
T11F4 018:248 JLINK_ReadMemEx(0x400003A0, 0x0004 Bytes, ..., Flags = 0x02000004) -- CPU_ReadMem(4 bytes @ 0x400003A0) - Data: FF 00 00 00  returns 0x04 (0000ms, 1875ms total)
T11F4 018:248 JLINK_ReadMemEx(0x400003A8, 0x0014 Bytes, ..., Flags = 0x02000004) -- CPU_ReadMem(20 bytes @ 0x400003A8) - Data: 00 00 00 40 00 00 00 40 00 00 00 40 00 00 00 40 ...  returns 0x14 (0001ms, 1876ms total)
T11F4 018:249 JLINK_ReadMemEx(0x400003BC, 0x0004 Bytes, ..., Flags = 0x02000004) -- CPU_ReadMem(4 bytes @ 0x400003BC) - Data: 00 00 00 40  returns 0x04 (0000ms, 1876ms total)
T11F4 018:249 JLINK_ReadMemEx(0x40000400, 0x0004 Bytes, ..., Flags = 0x02000004) -- CPU_ReadMem(4 bytes @ 0x40000400) - Data: 1A 00 00 00  returns 0x04 (0001ms, 1877ms total)
T11F4 018:250 JLINK_ReadMemEx(0x4000040C, 0x0004 Bytes, ..., Flags = 0x02000004) -- CPU_ReadMem(4 bytes @ 0x4000040C) - Data: 00 00 00 00  returns 0x04 (0000ms, 1877ms total)
T11F4 018:250 JLINK_ReadMemEx(0x40000410, 0x0004 Bytes, ..., Flags = 0x02000004) -- CPU_ReadMem(4 bytes @ 0x40000410) - Data: 03 00 00 00  returns 0x04 (0001ms, 1878ms total)
T11F4 018:251 JLINK_ReadMemEx(0x40000418, 0x0004 Bytes, ..., Flags = 0x02000004) -- CPU_ReadMem(4 bytes @ 0x40000418) - Data: 00 00 00 00  returns 0x04 (0000ms, 1878ms total)
T11F4 018:251 JLINK_ReadMemEx(0x40000420, 0x0008 Bytes, ..., Flags = 0x02000004) -- CPU_ReadMem(8 bytes @ 0x40000420) - Data: 00 00 00 00 10 00 00 00  returns 0x08 (0001ms, 1879ms total)
T11F4 018:252 JLINK_ReadMemEx(0x40000428, 0x0004 Bytes, ..., Flags = 0x02000004) -- CPU_ReadMem(4 bytes @ 0x40000428) - Data: 03 00 00 00  returns 0x04 (0000ms, 1879ms total)
T11F4 018:252 JLINK_ReadMemEx(0x40000444, 0x0010 Bytes, ..., Flags = 0x02000004) -- CPU_ReadMem(16 bytes @ 0x40000444) - Data: 01 00 00 00 10 02 00 00 00 1F 00 00 00 00 00 00  returns 0x10 (0001ms, 1880ms total)
T11F4 018:253 JLINK_ReadMemEx(0x40000454, 0x0004 Bytes, ..., Flags = 0x02000004) -- CPU_ReadMem(4 bytes @ 0x40000454) - Data: 00 00 00 00  returns 0x04 (0000ms, 1880ms total)
T11F4 018:253 JLINK_ReadMemEx(0x40000460, 0x0004 Bytes, ..., Flags = 0x02000004) -- CPU_ReadMem(4 bytes @ 0x40000460) - Data: 00 00 00 00  returns 0x04 (0001ms, 1881ms total)
T11F4 018:254 JLINK_ReadMemEx(0x40000500, 0x000C Bytes, ..., Flags = 0x02000004) -- CPU_ReadMem(12 bytes @ 0x40000500) - Data: 69 57 AA 00 00 00 00 00 A0 00 00 00  returns 0x0C (0000ms, 1881ms total)
T11F4 018:254 JLINK_ReadMemEx(0x4000050C, 0x0004 Bytes, ..., Flags = 0x02000004) -- CPU_ReadMem(4 bytes @ 0x4000050C) - Data: 01 00 00 00  returns 0x04 (0001ms, 1882ms total)
T11F4 018:255 JLINK_ReadMemEx(0x4000051C, 0x0004 Bytes, ..., Flags = 0x02000004) -- CPU_ReadMem(4 bytes @ 0x4000051C) - Data: 00 00 00 00  returns 0x04 (0000ms, 1882ms total)
T11F4 018:255 JLINK_ReadMemEx(0x40000520, 0x0004 Bytes, ..., Flags = 0x02000004) -- CPU_ReadMem(4 bytes @ 0x40000520) - Data: 00 00 00 00  returns 0x04 (0001ms, 1883ms total)
T11F4 018:256 JLINK_ReadMemEx(0x40000580, 0x0010 Bytes, ..., Flags = 0x02000004) -- CPU_ReadMem(16 bytes @ 0x40000580) - Data: 00 00 00 00 00 00 00 00 00 00 00 00 00 00 00 00  returns 0x10 (0000ms, 1883ms total)
T11F4 018:256 JLINK_ReadMemEx(0x40000590, 0x0004 Bytes, ..., Flags = 0x02000004) -- CPU_ReadMem(4 bytes @ 0x40000590) - Data: 00 00 00 00  returns 0x04 (0001ms, 1884ms total)
T11F4 018:257 JLINK_ReadMemEx(0x400005A0, 0x0014 Bytes, ..., Flags = 0x02000004) -- CPU_ReadMem(20 bytes @ 0x400005A0) - Data: 00 00 00 00 00 00 00 00 00 00 00 00 00 00 00 00 ...  returns 0x14 (0000ms, 1884ms total)
T11F4 018:257 JLINK_ReadMemEx(0x400005B4, 0x0004 Bytes, ..., Flags = 0x02000004) -- CPU_ReadMem(4 bytes @ 0x400005B4) - Data: 00 00 00 00  returns 0x04 (0001ms, 1885ms total)
T11F4 018:258 JLINK_ReadMemEx(0x40000600, 0x0004 Bytes, ..., Flags = 0x02000004) -- CPU_ReadMem(4 bytes @ 0x40000600) - Data: 40 07 F8 16  returns 0x04 (0000ms, 1885ms total)
T11F4 018:258 JLINK_ReadMemEx(0x40000604, 0x0004 Bytes, ..., Flags = 0x02000004) -- CPU_ReadMem(4 bytes @ 0x40000604) - Data: 8F 00 00 20  returns 0x04 (0001ms, 1886ms total)
T11F4 018:259 JLINK_ReadMemEx(0x40000610, 0x0004 Bytes, ..., Flags = 0x02000004) -- CPU_ReadMem(4 bytes @ 0x40000610) - Data: 40 07 F8 16  returns 0x04 (0000ms, 1886ms total)
T11F4 018:259 JLINK_ReadMemEx(0x40000614, 0x0004 Bytes, ..., Flags = 0x02000004) -- CPU_ReadMem(4 bytes @ 0x40000614) - Data: 8F 00 00 20  returns 0x04 (0001ms, 1887ms total)
T11F4 018:260 JLINK_ReadMemEx(0x40000620, 0x0004 Bytes, ..., Flags = 0x02000004) -- CPU_ReadMem(4 bytes @ 0x40000620) - Data: 00 00 00 00  returns 0x04 (0000ms, 1887ms total)
T11F4 018:260 JLINK_ReadMemEx(0x40000624, 0x0004 Bytes, ..., Flags = 0x02000004) -- CPU_ReadMem(4 bytes @ 0x40000624) - Data: 00 00 00 00  returns 0x04 (0001ms, 1888ms total)
T11F4 018:261 JLINK_ReadMemEx(0x40000630, 0x0004 Bytes, ..., Flags = 0x02000004) -- CPU_ReadMem(4 bytes @ 0x40000630) - Data: 00 00 00 00  returns 0x04 (0000ms, 1888ms total)
T11F4 018:261 JLINK_ReadMemEx(0x40000634, 0x0004 Bytes, ..., Flags = 0x02000004) -- CPU_ReadMem(4 bytes @ 0x40000634) - Data: 00 00 00 00  returns 0x04 (0001ms, 1889ms total)
T11F4 018:262 JLINK_ReadMemEx(0x40000680, 0x0004 Bytes, ..., Flags = 0x02000004) -- CPU_ReadMem(4 bytes @ 0x40000680) - Data: 00 00 00 00  returns 0x04 (0000ms, 1889ms total)
T11F4 018:262 JLINK_ReadMemEx(0x40000684, 0x0004 Bytes, ..., Flags = 0x02000004) -- CPU_ReadMem(4 bytes @ 0x40000684) - Data: 00 00 00 00  returns 0x04 (0001ms, 1890ms total)
T11F4 018:263 JLINK_ReadMemEx(0x40000780, 0x0004 Bytes, ..., Flags = 0x02000004) -- CPU_ReadMem(4 bytes @ 0x40000780) - Data: 00 00 00 00  returns 0x04 (0000ms, 1890ms total)
T11F4 018:263 JLINK_ReadMemEx(0x40000E04, 0x0004 Bytes, ..., Flags = 0x02000004) -- CPU_ReadMem(4 bytes @ 0x40000E04) - Data: 00 00 00 00  returns 0x04 (0001ms, 1891ms total)
T11F4 018:264 JLINK_ReadMemEx(0x40000FF4, 0x0008 Bytes, ..., Flags = 0x02000004) -- CPU_ReadMem(8 bytes @ 0x40000FF4) - Data: 2B A0 CA 10 06 46 F5 FF  returns 0x08 (0000ms, 1891ms total)
T11F4 018:264 JLINK_ReadMemEx(0x40000FFC, 0x0004 Bytes, ..., Flags = 0x02000004) -- CPU_ReadMem(4 bytes @ 0x40000FFC) - Data: AA 0C 41 08  returns 0x04 (0001ms, 1892ms total)
T11F4 018:265 JLINK_ReadMemEx(0x40020044, 0x0004 Bytes, ..., Flags = 0x02000004) -- CPU_ReadMem(4 bytes @ 0x40020044) - Data: 44 00 00 00  returns 0x04 (0000ms, 1892ms total)
T11F4 020:328 JLINK_ReadReg(R0)  returns 0x00000000 (0001ms, 1893ms total)
T11F4 020:329 JLINK_ReadReg(R1)  returns 0x000001C5 (0000ms, 1893ms total)
T11F4 020:329 JLINK_ReadReg(R2)  returns 0xFFFFFFFF (0000ms, 1893ms total)
T11F4 020:329 JLINK_ReadReg(R3)  returns 0x00000000 (0000ms, 1893ms total)
T11F4 020:329 JLINK_ReadReg(R4)  returns 0x40000000 (0000ms, 1893ms total)
T11F4 020:329 JLINK_ReadReg(R5)  returns 0x00000000 (0000ms, 1893ms total)
T11F4 020:329 JLINK_ReadReg(R6)  returns 0x00000002 (0000ms, 1893ms total)
T11F4 020:329 JLINK_ReadReg(R7)  returns 0x12345678 (0000ms, 1893ms total)
T11F4 020:329 JLINK_ReadReg(R8)  returns 0x00000000 (0000ms, 1893ms total)
T11F4 020:329 JLINK_ReadReg(R9)  returns 0x00000000 (0000ms, 1893ms total)
T11F4 020:329 JLINK_ReadReg(R10)  returns 0x00000000 (0000ms, 1893ms total)
T11F4 020:329 JLINK_ReadReg(R11)  returns 0x00000000 (0000ms, 1893ms total)
T11F4 020:329 JLINK_ReadReg(R12)  returns 0x00000000 (0000ms, 1893ms total)
T11F4 020:329 JLINK_ReadReg(R13 (SP))  returns 0x20008C70 (0000ms, 1893ms total)
T11F4 020:329 JLINK_ReadReg(R14)  returns 0x03000CAB (0000ms, 1893ms total)
T11F4 020:329 JLINK_ReadReg(R15 (PC))  returns 0x000001C4 (0000ms, 1893ms total)
T11F4 020:329 JLINK_ReadReg(XPSR)  returns 0xA1000000 (0000ms, 1893ms total)
T11F4 020:329 JLINK_ReadReg(MSP)  returns 0x20008C70 (0000ms, 1893ms total)
T11F4 020:329 JLINK_ReadReg(PSP)  returns 0x00000000 (0000ms, 1893ms total)
T11F4 020:329 JLINK_ReadReg(CFBP)  returns 0x00000000 (0000ms, 1893ms total)
T11F4 020:329 JLINK_ReadReg(FPSCR)  returns 0x00000000 (0006ms, 1899ms total)
T11F4 020:335 JLINK_ReadReg(FPS0)  returns 0x00000000 (0000ms, 1899ms total)
T11F4 020:335 JLINK_ReadReg(FPS1)  returns 0x00000000 (0000ms, 1899ms total)
T11F4 020:335 JLINK_ReadReg(FPS2)  returns 0x00000000 (0000ms, 1899ms total)
T11F4 020:335 JLINK_ReadReg(FPS3)  returns 0x00000000 (0000ms, 1899ms total)
T11F4 020:335 JLINK_ReadReg(FPS4)  returns 0x00000000 (0000ms, 1899ms total)
T11F4 020:335 JLINK_ReadReg(FPS5)  returns 0x00000000 (0000ms, 1899ms total)
T11F4 020:335 JLINK_ReadReg(FPS6)  returns 0x00000000 (0000ms, 1899ms total)
T11F4 020:335 JLINK_ReadReg(FPS7)  returns 0x00000000 (0000ms, 1899ms total)
T11F4 020:335 JLINK_ReadReg(FPS8)  returns 0x00000000 (0000ms, 1899ms total)
T11F4 020:335 JLINK_ReadReg(FPS9)  returns 0x00000000 (0000ms, 1899ms total)
T11F4 020:335 JLINK_ReadReg(FPS10)  returns 0x00000000 (0000ms, 1899ms total)
T11F4 020:335 JLINK_ReadReg(FPS11)  returns 0x00000000 (0000ms, 1899ms total)
T11F4 020:335 JLINK_ReadReg(FPS12)  returns 0x00000000 (0000ms, 1899ms total)
T11F4 020:335 JLINK_ReadReg(FPS13)  returns 0x00000000 (0000ms, 1899ms total)
T11F4 020:335 JLINK_ReadReg(FPS14)  returns 0x00000000 (0000ms, 1899ms total)
T11F4 020:335 JLINK_ReadReg(FPS15)  returns 0x00000000 (0000ms, 1899ms total)
T11F4 020:335 JLINK_ReadReg(FPS16)  returns 0x00000000 (0000ms, 1899ms total)
T11F4 020:335 JLINK_ReadReg(FPS17)  returns 0x00000000 (0000ms, 1899ms total)
T11F4 020:335 JLINK_ReadReg(FPS18)  returns 0x00000000 (0000ms, 1899ms total)
T11F4 020:335 JLINK_ReadReg(FPS19)  returns 0x00000000 (0000ms, 1899ms total)
T11F4 020:335 JLINK_ReadReg(FPS20)  returns 0x00000000 (0000ms, 1899ms total)
T11F4 020:335 JLINK_ReadReg(FPS21)  returns 0x00000000 (0000ms, 1899ms total)
T11F4 020:335 JLINK_ReadReg(FPS22)  returns 0x00000000 (0000ms, 1899ms total)
T11F4 020:335 JLINK_ReadReg(FPS23)  returns 0x00000000 (0000ms, 1899ms total)
T11F4 020:335 JLINK_ReadReg(FPS24)  returns 0x00000000 (0000ms, 1899ms total)
T11F4 020:335 JLINK_ReadReg(FPS25)  returns 0x00000000 (0000ms, 1899ms total)
T11F4 020:335 JLINK_ReadReg(FPS26)  returns 0x00000000 (0000ms, 1899ms total)
T11F4 020:335 JLINK_ReadReg(FPS27)  returns 0x00000000 (0000ms, 1899ms total)
T11F4 020:335 JLINK_ReadReg(FPS28)  returns 0x00000000 (0000ms, 1899ms total)
T11F4 020:335 JLINK_ReadReg(FPS29)  returns 0x00000000 (0000ms, 1899ms total)
T11F4 020:335 JLINK_ReadReg(FPS30)  returns 0x00000000 (0000ms, 1899ms total)
T11F4 020:335 JLINK_ReadReg(FPS31)  returns 0x00000000 (0000ms, 1899ms total)
T11F4 020:335 JLINK_ReadMemEx(0x200000AA, 0x0002 Bytes, ..., Flags = 0x02000000) -- CPU_ReadMem(64 bytes @ 0x20000080) -- Updating C cache (64 bytes @ 0x20000080) -- Read from C cache (2 bytes @ 0x200000AA) - Data: 00 00  returns 0x02 (0001ms, 1900ms total)
T11F4 020:349 JLINK_ReadMemEx(0x200000AC, 0x0002 Bytes, ..., Flags = 0x02000000) -- Read from C cache (2 bytes @ 0x200000AC) - Data: 00 00  returns 0x02 (0000ms, 1900ms total)
T11F4 020:353 JLINK_ReadMemEx(0x200000AE, 0x0002 Bytes, ..., Flags = 0x02000000) -- Read from C cache (2 bytes @ 0x200000AE) - Data: 00 00  returns 0x02 (0000ms, 1900ms total)
T11F4 020:359 JLINK_ReadMemEx(0x200000A4, 0x0002 Bytes, ..., Flags = 0x02000000) -- Read from C cache (2 bytes @ 0x200000A4) - Data: 00 00  returns 0x02 (0000ms, 1900ms total)
T11F4 020:364 JLINK_ReadMemEx(0x200000A6, 0x0002 Bytes, ..., Flags = 0x02000000) -- Read from C cache (2 bytes @ 0x200000A6) - Data: 00 00  returns 0x02 (0000ms, 1900ms total)
T11F4 020:368 JLINK_ReadMemEx(0x200000A8, 0x0002 Bytes, ..., Flags = 0x02000000) -- Read from C cache (2 bytes @ 0x200000A8) - Data: 00 00  returns 0x02 (0000ms, 1900ms total)
T11F4 020:374 JLINK_ReadMemEx(0x20000054, 0x0004 Bytes, ..., Flags = 0x02000000) -- CPU_ReadMem(64 bytes @ 0x20000040) -- Updating C cache (64 bytes @ 0x20000040) -- Read from C cache (4 bytes @ 0x20000054) - Data: 00 00 00 00  returns 0x04 (0001ms, 1901ms total)
T11F4 020:381 JLINK_ReadMemEx(0x20005C00, 0x000A Bytes, ..., Flags = 0x02000000) -- CPU_ReadMem(64 bytes @ 0x20005C00) -- Updating C cache (64 bytes @ 0x20005C00) -- Read from C cache (10 bytes @ 0x20005C00) - Data: 00 00 00 00 00 00 00 00 00 00  returns 0x0A (0001ms, 1902ms total)
T11F4 020:406 JLINK_ReadMemEx(0x40000010, 0x0004 Bytes, ..., Flags = 0x02000004) -- CPU_ReadMem(4 bytes @ 0x40000010) - Data: 00 00 00 00  returns 0x04 (0001ms, 1903ms total)
T11F4 020:407 JLINK_ReadMemEx(0x40000040, 0x0004 Bytes, ..., Flags = 0x02000004) -- CPU_ReadMem(4 bytes @ 0x40000040) - Data: 00 00 00 00  returns 0x04 (0000ms, 1903ms total)
T11F4 020:407 JLINK_ReadMemEx(0x40000048, 0x0004 Bytes, ..., Flags = 0x02000004) -- CPU_ReadMem(4 bytes @ 0x40000048) - Data: 00 00 00 00  returns 0x04 (0001ms, 1904ms total)
T11F4 020:408 JLINK_ReadMemEx(0x4000004C, 0x0004 Bytes, ..., Flags = 0x02000004) -- CPU_ReadMem(4 bytes @ 0x4000004C) - Data: 00 00 00 00  returns 0x04 (0000ms, 1904ms total)
T11F4 020:408 JLINK_ReadMemEx(0x400000C0, 0x0004 Bytes, ..., Flags = 0x02000004) -- CPU_ReadMem(4 bytes @ 0x400000C0) - Data: 83 FF 7F FF  returns 0x04 (0001ms, 1905ms total)
T11F4 020:409 JLINK_ReadMemEx(0x400000C4, 0x0004 Bytes, ..., Flags = 0x02000004) -- CPU_ReadMem(4 bytes @ 0x400000C4) - Data: FF FF FF FF  returns 0x04 (0000ms, 1905ms total)
T11F4 020:409 JLINK_ReadMemEx(0x400000D0, 0x0004 Bytes, ..., Flags = 0x02000004) -- CPU_ReadMem(4 bytes @ 0x400000D0) - Data: 83 FF FF FF  returns 0x04 (0001ms, 1906ms total)
T11F4 020:410 JLINK_ReadMemEx(0x400000D4, 0x0004 Bytes, ..., Flags = 0x02000004) -- CPU_ReadMem(4 bytes @ 0x400000D4) - Data: FF FF FF FF  returns 0x04 (0001ms, 1907ms total)
T11F4 020:411 JLINK_ReadMemEx(0x40000100, 0x0008 Bytes, ..., Flags = 0x02000004) -- CPU_ReadMem(8 bytes @ 0x40000100) - Data: 00 00 00 00 00 00 00 00  returns 0x08 (0000ms, 1907ms total)
T11F4 020:411 JLINK_ReadMemEx(0x40000108, 0x0004 Bytes, ..., Flags = 0x02000004) -- CPU_ReadMem(4 bytes @ 0x40000108) - Data: 00 00 00 00  returns 0x04 (0001ms, 1908ms total)
T11F4 020:412 JLINK_ReadMemEx(0x400001F0, 0x0004 Bytes, ..., Flags = 0x02000004) -- CPU_ReadMem(4 bytes @ 0x400001F0) - Data: 1B 00 00 00  returns 0x04 (0000ms, 1908ms total)
T11F4 020:412 JLINK_ReadMemEx(0x40000200, 0x0008 Bytes, ..., Flags = 0x02000004) -- CPU_ReadMem(8 bytes @ 0x40000200) - Data: 8B 01 00 00 00 00 00 00  returns 0x08 (0001ms, 1909ms total)
T11F4 020:413 JLINK_ReadMemEx(0x40000208, 0x0004 Bytes, ..., Flags = 0x02000004) -- CPU_ReadMem(4 bytes @ 0x40000208) - Data: 00 00 00 00  returns 0x04 (0000ms, 1909ms total)
T11F4 020:413 JLINK_ReadMemEx(0x40000280, 0x0008 Bytes, ..., Flags = 0x02000004) -- CPU_ReadMem(8 bytes @ 0x40000280) - Data: 00 00 00 00 00 00 00 00  returns 0x08 (0001ms, 1910ms total)
T11F4 020:414 JLINK_ReadMemEx(0x40000288, 0x0004 Bytes, ..., Flags = 0x02000004) -- CPU_ReadMem(4 bytes @ 0x40000288) - Data: 07 00 00 00  returns 0x04 (0000ms, 1910ms total)
T11F4 020:414 JLINK_ReadMemEx(0x40000290, 0x0004 Bytes, ..., Flags = 0x02000004) -- CPU_ReadMem(4 bytes @ 0x40000290) - Data: 00 00 00 00  returns 0x04 (0001ms, 1911ms total)
T11F4 020:415 JLINK_ReadMemEx(0x40000298, 0x0004 Bytes, ..., Flags = 0x02000004) -- CPU_ReadMem(4 bytes @ 0x40000298) - Data: 00 00 00 00  returns 0x04 (0000ms, 1911ms total)
T11F4 020:415 JLINK_ReadMemEx(0x400002A0, 0x0034 Bytes, ..., Flags = 0x02000004) -- CPU_ReadMem(52 bytes @ 0x400002A0) - Data: 07 00 00 00 07 00 00 00 07 00 00 00 07 00 00 00 ...  returns 0x34 (0001ms, 1912ms total)
T11F4 020:416 JLINK_ReadMemEx(0x400002D4, 0x0004 Bytes, ..., Flags = 0x02000004) -- CPU_ReadMem(4 bytes @ 0x400002D4) - Data: 07 00 00 00  returns 0x04 (0001ms, 1913ms total)
T11F4 020:417 JLINK_ReadMemEx(0x400002E0, 0x0004 Bytes, ..., Flags = 0x02000004) -- CPU_ReadMem(4 bytes @ 0x400002E0) - Data: 07 00 00 00  returns 0x04 (0000ms, 1913ms total)
T11F4 020:417 JLINK_ReadMemEx(0x400002E8, 0x0010 Bytes, ..., Flags = 0x02000004) -- CPU_ReadMem(16 bytes @ 0x400002E8) - Data: 02 00 00 00 07 00 00 00 07 00 00 00 07 00 00 00  returns 0x10 (0001ms, 1914ms total)
T11F4 020:418 JLINK_ReadMemEx(0x400002F8, 0x0004 Bytes, ..., Flags = 0x02000004) -- CPU_ReadMem(4 bytes @ 0x400002F8) - Data: 07 00 00 00  returns 0x04 (0000ms, 1914ms total)
T11F4 020:418 JLINK_ReadMemEx(0x40000300, 0x0014 Bytes, ..., Flags = 0x02000004) -- CPU_ReadMem(20 bytes @ 0x40000300) - Data: 00 00 00 40 00 00 00 40 00 00 00 40 00 00 00 40 ...  returns 0x14 (0001ms, 1915ms total)
T11F4 020:419 JLINK_ReadMemEx(0x40000314, 0x0004 Bytes, ..., Flags = 0x02000004) -- CPU_ReadMem(4 bytes @ 0x40000314) - Data: 00 00 00 40  returns 0x04 (0000ms, 1915ms total)
T11F4 020:419 JLINK_ReadMemEx(0x40000380, 0x0008 Bytes, ..., Flags = 0x02000004) -- CPU_ReadMem(8 bytes @ 0x40000380) - Data: 00 00 00 00 00 00 00 40  returns 0x08 (0001ms, 1916ms total)
T11F4 020:420 JLINK_ReadMemEx(0x40000388, 0x0004 Bytes, ..., Flags = 0x02000004) -- CPU_ReadMem(4 bytes @ 0x40000388) - Data: 00 00 00 00  returns 0x04 (0000ms, 1916ms total)
T11F4 020:420 JLINK_ReadMemEx(0x40000390, 0x0010 Bytes, ..., Flags = 0x02000004) -- CPU_ReadMem(16 bytes @ 0x40000390) - Data: 00 00 00 40 00 00 00 40 00 00 00 40 00 00 00 40  returns 0x10 (0000ms, 1916ms total)
T11F4 020:420 JLINK_ReadMemEx(0x400003A0, 0x0004 Bytes, ..., Flags = 0x02000004) -- CPU_ReadMem(4 bytes @ 0x400003A0) - Data: FF 00 00 00  returns 0x04 (0001ms, 1917ms total)
T11F4 020:421 JLINK_ReadMemEx(0x400003A8, 0x0014 Bytes, ..., Flags = 0x02000004) -- CPU_ReadMem(20 bytes @ 0x400003A8) - Data: 00 00 00 40 00 00 00 40 00 00 00 40 00 00 00 40 ...  returns 0x14 (0000ms, 1917ms total)
T11F4 020:421 JLINK_ReadMemEx(0x400003BC, 0x0004 Bytes, ..., Flags = 0x02000004) -- CPU_ReadMem(4 bytes @ 0x400003BC) - Data: 00 00 00 40  returns 0x04 (0001ms, 1918ms total)
T11F4 020:422 JLINK_ReadMemEx(0x40000400, 0x0004 Bytes, ..., Flags = 0x02000004) -- CPU_ReadMem(4 bytes @ 0x40000400) - Data: 1A 00 00 00  returns 0x04 (0000ms, 1918ms total)
T11F4 020:422 JLINK_ReadMemEx(0x4000040C, 0x0004 Bytes, ..., Flags = 0x02000004) -- CPU_ReadMem(4 bytes @ 0x4000040C) - Data: 00 00 00 00  returns 0x04 (0001ms, 1919ms total)
T11F4 020:423 JLINK_ReadMemEx(0x40000410, 0x0004 Bytes, ..., Flags = 0x02000004) -- CPU_ReadMem(4 bytes @ 0x40000410) - Data: 03 00 00 00  returns 0x04 (0000ms, 1919ms total)
T11F4 020:423 JLINK_ReadMemEx(0x40000418, 0x0004 Bytes, ..., Flags = 0x02000004) -- CPU_ReadMem(4 bytes @ 0x40000418) - Data: 00 00 00 00  returns 0x04 (0001ms, 1920ms total)
T11F4 020:424 JLINK_ReadMemEx(0x40000420, 0x0008 Bytes, ..., Flags = 0x02000004) -- CPU_ReadMem(8 bytes @ 0x40000420) - Data: 00 00 00 00 10 00 00 00  returns 0x08 (0000ms, 1920ms total)
T11F4 020:424 JLINK_ReadMemEx(0x40000428, 0x0004 Bytes, ..., Flags = 0x02000004) -- CPU_ReadMem(4 bytes @ 0x40000428) - Data: 03 00 00 00  returns 0x04 (0001ms, 1921ms total)
T11F4 020:425 JLINK_ReadMemEx(0x40000444, 0x0010 Bytes, ..., Flags = 0x02000004) -- CPU_ReadMem(16 bytes @ 0x40000444) - Data: 01 00 00 00 10 02 00 00 00 1F 00 00 00 00 00 00  returns 0x10 (0000ms, 1921ms total)
T11F4 020:425 JLINK_ReadMemEx(0x40000454, 0x0004 Bytes, ..., Flags = 0x02000004) -- CPU_ReadMem(4 bytes @ 0x40000454) - Data: 00 00 00 00  returns 0x04 (0001ms, 1922ms total)
T11F4 020:426 JLINK_ReadMemEx(0x40000460, 0x0004 Bytes, ..., Flags = 0x02000004) -- CPU_ReadMem(4 bytes @ 0x40000460) - Data: 00 00 00 00  returns 0x04 (0000ms, 1922ms total)
T11F4 020:426 JLINK_ReadMemEx(0x40000500, 0x000C Bytes, ..., Flags = 0x02000004) -- CPU_ReadMem(12 bytes @ 0x40000500) - Data: 69 57 AA 00 00 00 00 00 A0 00 00 00  returns 0x0C (0001ms, 1923ms total)
T11F4 020:427 JLINK_ReadMemEx(0x4000050C, 0x0004 Bytes, ..., Flags = 0x02000004) -- CPU_ReadMem(4 bytes @ 0x4000050C) - Data: 01 00 00 00  returns 0x04 (0000ms, 1923ms total)
T11F4 020:427 JLINK_ReadMemEx(0x4000051C, 0x0004 Bytes, ..., Flags = 0x02000004) -- CPU_ReadMem(4 bytes @ 0x4000051C) - Data: 00 00 00 00  returns 0x04 (0001ms, 1924ms total)
T11F4 020:428 JLINK_ReadMemEx(0x40000520, 0x0004 Bytes, ..., Flags = 0x02000004) -- CPU_ReadMem(4 bytes @ 0x40000520) - Data: 00 00 00 00  returns 0x04 (0000ms, 1924ms total)
T11F4 020:428 JLINK_ReadMemEx(0x40000580, 0x0010 Bytes, ..., Flags = 0x02000004) -- CPU_ReadMem(16 bytes @ 0x40000580) - Data: 00 00 00 00 00 00 00 00 00 00 00 00 00 00 00 00  returns 0x10 (0001ms, 1925ms total)
T11F4 020:429 JLINK_ReadMemEx(0x40000590, 0x0004 Bytes, ..., Flags = 0x02000004) -- CPU_ReadMem(4 bytes @ 0x40000590) - Data: 00 00 00 00  returns 0x04 (0000ms, 1925ms total)
T11F4 020:429 JLINK_ReadMemEx(0x400005A0, 0x0014 Bytes, ..., Flags = 0x02000004) -- CPU_ReadMem(20 bytes @ 0x400005A0) - Data: 00 00 00 00 00 00 00 00 00 00 00 00 00 00 00 00 ...  returns 0x14 (0001ms, 1926ms total)
T11F4 020:430 JLINK_ReadMemEx(0x400005B4, 0x0004 Bytes, ..., Flags = 0x02000004) -- CPU_ReadMem(4 bytes @ 0x400005B4) - Data: 00 00 00 00  returns 0x04 (0000ms, 1926ms total)
T11F4 020:430 JLINK_ReadMemEx(0x40000600, 0x0004 Bytes, ..., Flags = 0x02000004) -- CPU_ReadMem(4 bytes @ 0x40000600) - Data: 40 07 F8 16  returns 0x04 (0000ms, 1926ms total)
T11F4 020:430 JLINK_ReadMemEx(0x40000604, 0x0004 Bytes, ..., Flags = 0x02000004) -- CPU_ReadMem(4 bytes @ 0x40000604) - Data: 8F 00 00 20  returns 0x04 (0001ms, 1927ms total)
T11F4 020:431 JLINK_ReadMemEx(0x40000610, 0x0004 Bytes, ..., Flags = 0x02000004) -- CPU_ReadMem(4 bytes @ 0x40000610) - Data: 40 07 F8 16  returns 0x04 (0000ms, 1927ms total)
T11F4 020:431 JLINK_ReadMemEx(0x40000614, 0x0004 Bytes, ..., Flags = 0x02000004) -- CPU_ReadMem(4 bytes @ 0x40000614) - Data: 8F 00 00 20  returns 0x04 (0001ms, 1928ms total)
T11F4 020:432 JLINK_ReadMemEx(0x40000620, 0x0004 Bytes, ..., Flags = 0x02000004) -- CPU_ReadMem(4 bytes @ 0x40000620) - Data: 00 00 00 00  returns 0x04 (0000ms, 1928ms total)
T11F4 020:432 JLINK_ReadMemEx(0x40000624, 0x0004 Bytes, ..., Flags = 0x02000004) -- CPU_ReadMem(4 bytes @ 0x40000624) - Data: 00 00 00 00  returns 0x04 (0001ms, 1929ms total)
T11F4 020:433 JLINK_ReadMemEx(0x40000630, 0x0004 Bytes, ..., Flags = 0x02000004) -- CPU_ReadMem(4 bytes @ 0x40000630) - Data: 00 00 00 00  returns 0x04 (0000ms, 1929ms total)
T11F4 020:433 JLINK_ReadMemEx(0x40000634, 0x0004 Bytes, ..., Flags = 0x02000004) -- CPU_ReadMem(4 bytes @ 0x40000634) - Data: 00 00 00 00  returns 0x04 (0001ms, 1930ms total)
T11F4 020:434 JLINK_ReadMemEx(0x40000680, 0x0004 Bytes, ..., Flags = 0x02000004) -- CPU_ReadMem(4 bytes @ 0x40000680) - Data: 00 00 00 00  returns 0x04 (0000ms, 1930ms total)
T11F4 020:434 JLINK_ReadMemEx(0x40000684, 0x0004 Bytes, ..., Flags = 0x02000004) -- CPU_ReadMem(4 bytes @ 0x40000684) - Data: 00 00 00 00  returns 0x04 (0001ms, 1931ms total)
T11F4 020:435 JLINK_ReadMemEx(0x40000780, 0x0004 Bytes, ..., Flags = 0x02000004) -- CPU_ReadMem(4 bytes @ 0x40000780) - Data: 00 00 00 00  returns 0x04 (0000ms, 1931ms total)
T11F4 020:435 JLINK_ReadMemEx(0x40000E04, 0x0004 Bytes, ..., Flags = 0x02000004) -- CPU_ReadMem(4 bytes @ 0x40000E04) - Data: 00 00 00 00  returns 0x04 (0000ms, 1931ms total)
T11F4 020:435 JLINK_ReadMemEx(0x40000FF4, 0x0008 Bytes, ..., Flags = 0x02000004) -- CPU_ReadMem(8 bytes @ 0x40000FF4) - Data: 2B A0 CA 10 06 46 F5 FF  returns 0x08 (0001ms, 1932ms total)
T11F4 020:436 JLINK_ReadMemEx(0x40000FFC, 0x0004 Bytes, ..., Flags = 0x02000004) -- CPU_ReadMem(4 bytes @ 0x40000FFC) - Data: AA 0C 41 08  returns 0x04 (0000ms, 1932ms total)
T11F4 020:436 JLINK_ReadMemEx(0x40020044, 0x0004 Bytes, ..., Flags = 0x02000004) -- CPU_ReadMem(4 bytes @ 0x40020044) - Data: 44 00 00 00  returns 0x04 (0001ms, 1933ms total)
T230C 022:257 JLINK_ReadMemEx(0x000001C4, 0x0002 Bytes, ..., Flags = 0x02000000) -- Read from C cache (2 bytes @ 0x000001C4) - Data: 42 48  returns 0x02 (0000ms, 1933ms total)
T230C 022:257 JLINK_Step() -- Read from C cache (2 bytes @ 0x000001C4) -- CPU_ReadMem(4 bytes @ 0xE000ED18) -- CPU_WriteMem(4 bytes @ 0xE000ED18) -- CPU_ReadMem(4 bytes @ 0xE000ED18) -- CPU_WriteMem(4 bytes @ 0xE000ED18) -- CPU_ReadMem(64 bytes @ 0x000002C0) -- Updating C cache (64 bytes @ 0x000002C0) -- Read from C cache (4 bytes @ 0x000002D0) -- Simulated  returns 0x00 (0004ms, 1937ms total)
T230C 022:261 JLINK_ReadReg(R15 (PC))  returns 0x000001C6 (0000ms, 1937ms total)
T230C 022:261 JLINK_ReadReg(XPSR)  returns 0xA1000000 (0000ms, 1937ms total)
T230C 022:261 JLINK_ReadReg(R0)  returns 0x00000705 (0000ms, 1937ms total)
T230C 022:261 JLINK_ReadReg(R1)  returns 0x000001C5 (0000ms, 1937ms total)
T230C 022:261 JLINK_ReadReg(R2)  returns 0xFFFFFFFF (0000ms, 1937ms total)
T230C 022:261 JLINK_ReadReg(R3)  returns 0x00000000 (0000ms, 1937ms total)
T230C 022:261 JLINK_ReadReg(R4)  returns 0x40000000 (0000ms, 1937ms total)
T230C 022:261 JLINK_ReadReg(R5)  returns 0x00000000 (0000ms, 1937ms total)
T230C 022:261 JLINK_ReadReg(R6)  returns 0x00000002 (0000ms, 1937ms total)
T230C 022:261 JLINK_ReadReg(R7)  returns 0x12345678 (0000ms, 1937ms total)
T230C 022:261 JLINK_ReadReg(R8)  returns 0x00000000 (0000ms, 1937ms total)
T230C 022:261 JLINK_ReadReg(R9)  returns 0x00000000 (0000ms, 1937ms total)
T230C 022:261 JLINK_ReadReg(R10)  returns 0x00000000 (0000ms, 1937ms total)
T230C 022:261 JLINK_ReadReg(R11)  returns 0x00000000 (0000ms, 1937ms total)
T230C 022:261 JLINK_ReadReg(R12)  returns 0x00000000 (0000ms, 1937ms total)
T230C 022:261 JLINK_ReadReg(R13 (SP))  returns 0x20008C70 (0000ms, 1937ms total)
T230C 022:261 JLINK_ReadReg(R14)  returns 0x03000CAB (0000ms, 1937ms total)
T230C 022:261 JLINK_ReadReg(R15 (PC))  returns 0x000001C6 (0000ms, 1937ms total)
T230C 022:261 JLINK_ReadReg(XPSR)  returns 0xA1000000 (0000ms, 1937ms total)
T230C 022:261 JLINK_ReadReg(MSP)  returns 0x20008C70 (0000ms, 1937ms total)
T230C 022:261 JLINK_ReadReg(PSP)  returns 0x00000000 (0000ms, 1937ms total)
T230C 022:261 JLINK_ReadReg(CFBP)  returns 0x00000000 (0000ms, 1937ms total)
T230C 022:261 JLINK_ReadReg(FPSCR)  returns 0x00000000 (0000ms, 1937ms total)
T230C 022:261 JLINK_ReadReg(FPS0)  returns 0x00000000 (0000ms, 1937ms total)
T230C 022:261 JLINK_ReadReg(FPS1)  returns 0x00000000 (0000ms, 1937ms total)
T230C 022:261 JLINK_ReadReg(FPS2)  returns 0x00000000 (0000ms, 1937ms total)
T230C 022:261 JLINK_ReadReg(FPS3)  returns 0x00000000 (0000ms, 1937ms total)
T230C 022:261 JLINK_ReadReg(FPS4)  returns 0x00000000 (0000ms, 1937ms total)
T230C 022:261 JLINK_ReadReg(FPS5)  returns 0x00000000 (0000ms, 1937ms total)
T230C 022:261 JLINK_ReadReg(FPS6)  returns 0x00000000 (0000ms, 1937ms total)
T230C 022:261 JLINK_ReadReg(FPS7)  returns 0x00000000 (0000ms, 1937ms total)
T230C 022:261 JLINK_ReadReg(FPS8)  returns 0x00000000 (0000ms, 1937ms total)
T230C 022:262 JLINK_ReadReg(FPS9)  returns 0x00000000 (0000ms, 1938ms total)
T230C 022:262 JLINK_ReadReg(FPS10)  returns 0x00000000 (0000ms, 1938ms total)
T230C 022:262 JLINK_ReadReg(FPS11)  returns 0x00000000 (0000ms, 1938ms total)
T230C 022:262 JLINK_ReadReg(FPS12)  returns 0x00000000 (0000ms, 1938ms total)
T230C 022:262 JLINK_ReadReg(FPS13)  returns 0x00000000 (0000ms, 1938ms total)
T230C 022:262 JLINK_ReadReg(FPS14)  returns 0x00000000 (0000ms, 1938ms total)
T230C 022:262 JLINK_ReadReg(FPS15)  returns 0x00000000 (0000ms, 1938ms total)
T230C 022:262 JLINK_ReadReg(FPS16)  returns 0x00000000 (0000ms, 1938ms total)
T230C 022:262 JLINK_ReadReg(FPS17)  returns 0x00000000 (0000ms, 1938ms total)
T230C 022:262 JLINK_ReadReg(FPS18)  returns 0x00000000 (0000ms, 1938ms total)
T230C 022:262 JLINK_ReadReg(FPS19)  returns 0x00000000 (0000ms, 1938ms total)
T230C 022:262 JLINK_ReadReg(FPS20)  returns 0x00000000 (0000ms, 1938ms total)
T230C 022:262 JLINK_ReadReg(FPS21)  returns 0x00000000 (0000ms, 1938ms total)
T230C 022:262 JLINK_ReadReg(FPS22)  returns 0x00000000 (0000ms, 1938ms total)
T230C 022:262 JLINK_ReadReg(FPS23)  returns 0x00000000 (0000ms, 1938ms total)
T230C 022:262 JLINK_ReadReg(FPS24)  returns 0x00000000 (0000ms, 1938ms total)
T230C 022:262 JLINK_ReadReg(FPS25)  returns 0x00000000 (0000ms, 1938ms total)
T230C 022:262 JLINK_ReadReg(FPS26)  returns 0x00000000 (0000ms, 1938ms total)
T230C 022:262 JLINK_ReadReg(FPS27)  returns 0x00000000 (0000ms, 1938ms total)
T230C 022:262 JLINK_ReadReg(FPS28)  returns 0x00000000 (0000ms, 1938ms total)
T230C 022:262 JLINK_ReadReg(FPS29)  returns 0x00000000 (0000ms, 1938ms total)
T230C 022:262 JLINK_ReadReg(FPS30)  returns 0x00000000 (0000ms, 1938ms total)
T230C 022:262 JLINK_ReadReg(FPS31)  returns 0x00000000 (0000ms, 1938ms total)
T11F4 022:262 JLINK_ReadMemEx(0x200000AA, 0x0002 Bytes, ..., Flags = 0x02000000) -- Read from C cache (2 bytes @ 0x200000AA) - Data: 00 00  returns 0x02 (0000ms, 1938ms total)
T11F4 022:262 JLINK_ReadMemEx(0x200000AC, 0x0002 Bytes, ..., Flags = 0x02000000) -- Read from C cache (2 bytes @ 0x200000AC) - Data: 00 00  returns 0x02 (0000ms, 1938ms total)
T11F4 022:262 JLINK_ReadMemEx(0x200000AE, 0x0002 Bytes, ..., Flags = 0x02000000) -- Read from C cache (2 bytes @ 0x200000AE) - Data: 00 00  returns 0x02 (0000ms, 1938ms total)
T11F4 022:262 JLINK_ReadMemEx(0x200000A4, 0x0002 Bytes, ..., Flags = 0x02000000) -- Read from C cache (2 bytes @ 0x200000A4) - Data: 00 00  returns 0x02 (0000ms, 1938ms total)
T11F4 022:262 JLINK_ReadMemEx(0x200000A6, 0x0002 Bytes, ..., Flags = 0x02000000) -- Read from C cache (2 bytes @ 0x200000A6) - Data: 00 00  returns 0x02 (0000ms, 1938ms total)
T11F4 022:262 JLINK_ReadMemEx(0x200000A8, 0x0002 Bytes, ..., Flags = 0x02000000) -- Read from C cache (2 bytes @ 0x200000A8) - Data: 00 00  returns 0x02 (0000ms, 1938ms total)
T11F4 022:262 JLINK_ReadMemEx(0x20000054, 0x0004 Bytes, ..., Flags = 0x02000000) -- Read from C cache (4 bytes @ 0x20000054) - Data: 00 00 00 00  returns 0x04 (0000ms, 1938ms total)
T11F4 022:262 JLINK_ReadMemEx(0x20005C00, 0x000A Bytes, ..., Flags = 0x02000000) -- Read from C cache (10 bytes @ 0x20005C00) - Data: 00 00 00 00 00 00 00 00 00 00  returns 0x0A (0000ms, 1938ms total)
T11F4 022:263 JLINK_ReadMemEx(0x40000010, 0x0004 Bytes, ..., Flags = 0x02000004) -- CPU_ReadMem(4 bytes @ 0x40000010) - Data: 00 00 00 00  returns 0x04 (0000ms, 1938ms total)
T11F4 022:263 JLINK_ReadMemEx(0x40000040, 0x0004 Bytes, ..., Flags = 0x02000004) -- CPU_ReadMem(4 bytes @ 0x40000040) - Data: 00 00 00 00  returns 0x04 (0001ms, 1939ms total)
T11F4 022:264 JLINK_ReadMemEx(0x40000048, 0x0004 Bytes, ..., Flags = 0x02000004) -- CPU_ReadMem(4 bytes @ 0x40000048) - Data: 00 00 00 00  returns 0x04 (0000ms, 1939ms total)
T11F4 022:264 JLINK_ReadMemEx(0x4000004C, 0x0004 Bytes, ..., Flags = 0x02000004) -- CPU_ReadMem(4 bytes @ 0x4000004C) - Data: 00 00 00 00  returns 0x04 (0001ms, 1940ms total)
T11F4 022:265 JLINK_ReadMemEx(0x400000C0, 0x0004 Bytes, ..., Flags = 0x02000004) -- CPU_ReadMem(4 bytes @ 0x400000C0) - Data: 83 FF 7F FF  returns 0x04 (0000ms, 1940ms total)
T11F4 022:265 JLINK_ReadMemEx(0x400000C4, 0x0004 Bytes, ..., Flags = 0x02000004) -- CPU_ReadMem(4 bytes @ 0x400000C4) - Data: FF FF FF FF  returns 0x04 (0001ms, 1941ms total)
T11F4 022:266 JLINK_ReadMemEx(0x400000D0, 0x0004 Bytes, ..., Flags = 0x02000004) -- CPU_ReadMem(4 bytes @ 0x400000D0) - Data: 83 FF FF FF  returns 0x04 (0000ms, 1941ms total)
T11F4 022:266 JLINK_ReadMemEx(0x400000D4, 0x0004 Bytes, ..., Flags = 0x02000004) -- CPU_ReadMem(4 bytes @ 0x400000D4) - Data: FF FF FF FF  returns 0x04 (0001ms, 1942ms total)
T11F4 022:267 JLINK_ReadMemEx(0x40000100, 0x0008 Bytes, ..., Flags = 0x02000004) -- CPU_ReadMem(8 bytes @ 0x40000100) - Data: 00 00 00 00 00 00 00 00  returns 0x08 (0000ms, 1942ms total)
T11F4 022:267 JLINK_ReadMemEx(0x40000108, 0x0004 Bytes, ..., Flags = 0x02000004) -- CPU_ReadMem(4 bytes @ 0x40000108) - Data: 00 00 00 00  returns 0x04 (0001ms, 1943ms total)
T11F4 022:268 JLINK_ReadMemEx(0x400001F0, 0x0004 Bytes, ..., Flags = 0x02000004) -- CPU_ReadMem(4 bytes @ 0x400001F0) - Data: 1B 00 00 00  returns 0x04 (0001ms, 1944ms total)
T11F4 022:269 JLINK_ReadMemEx(0x40000200, 0x0008 Bytes, ..., Flags = 0x02000004) -- CPU_ReadMem(8 bytes @ 0x40000200) - Data: 8B 01 00 00 00 00 00 00  returns 0x08 (0000ms, 1944ms total)
T11F4 022:269 JLINK_ReadMemEx(0x40000208, 0x0004 Bytes, ..., Flags = 0x02000004) -- CPU_ReadMem(4 bytes @ 0x40000208) - Data: 00 00 00 00  returns 0x04 (0001ms, 1945ms total)
